hour, t(sec), P1 (kW), Q1 (kvar), P2 (kW), Q2 (kvar), P3 (kW), Q3 (kvar)
1, 0.00000, 566.614, 115.088, 547.694, 112.434, 521.474, 110.687
2, 0.00000, 545.201, 110.634, 526.698, 107.992, 501.505, 106.186
3, 0.00000, 526.494, 106.746, 508.373, 104.121, 484.076, 102.273
4, 0.00000, 512.466, 103.833, 494.677, 101.231, 471.045, 99.3559
5, 0.00000, 504.948, 102.272, 487.311, 99.6784, 464.036, 97.7907
6, 0.00000, 501.564, 101.57, 483.993, 98.9792, 460.879, 97.0866
7, 0.00000, 480.834, 97.2707, 463.742, 94.7155, 441.606, 92.7965
8, 0.00000, 477.613, 96.6029, 460.601, 94.0547, 438.617, 92.1326
9, 0.00000, 477.44, 96.567, 460.425, 94.0177, 438.45, 92.0958
10, 0.00000, 473.98, 95.8498, 457.055, 93.3091, 435.243, 91.3836
11, 0.00000, 467.266, 94.4584, 450.512, 91.9334, 429.015, 90.0022
12, 0.00000, 460.607, 93.0789, 444.017, 90.5687, 422.834, 88.6333
13, 0.00000, 457.376, 92.4096, 440.858, 89.9054, 419.828, 87.9688
14, 0.00000, 464.914, 93.9712, 448.185, 91.4449, 426.802, 89.5141
15, 0.00000, 456.844, 92.2994, 440.35, 89.7985, 419.344, 87.861
16, 0.00000, 458.103, 92.5602, 441.557, 90.0523, 420.493, 88.1167
17, 0.00000, 464.003, 93.7824, 447.3, 91.2589, 425.96, 89.3272
18, 0.00000, 465.347, 94.0609, 448.622, 91.5365, 427.217, 89.605
19, 0.00000, 465.564, 94.1058, 448.836, 91.5814, 427.421, 89.65
20, 0.00000, 478.884, 96.8665, 461.803, 94.308, 439.762, 92.3889
21, 0.00000, 492.204, 99.6285, 474.808, 97.0449, 452.139, 95.1406
22, 0.00000, 493.016, 99.7969, 475.631, 97.218, 452.922, 95.3136
23, 0.00000, 510.243, 103.372, 492.466, 100.765, 468.942, 98.8869
24, 0.00000, 521.83, 105.778, 503.773, 103.15, 479.703, 101.294
25, 0.00000, 545.441, 110.684, 526.922, 108.039, 501.72, 106.234
26, 0.00000, 560.363, 113.788, 541.518, 111.127, 515.601, 109.361
27, 0.00000, 586.097, 119.144, 566.812, 116.485, 539.654, 114.8
28, 0.00000, 554.142, 112.493, 535.466, 109.846, 509.843, 108.063
29, 0.00000, 556.792, 113.044, 538.049, 110.393, 512.301, 108.617
30, 0.00000, 557.28, 113.146, 538.533, 110.495, 512.761, 108.721
31, 0.00000, 555.75, 112.828, 537.038, 110.179, 511.339, 108.4
32, 0.00000, 502.604, 274.898, 487.488, 186.366, 474.131, 107.204
33, 0.00000, 419.49, 273.498, 409.96, 184.687, 415.592, 105.158
34, 0.00000, 332.248, 272.081, 328.23, 182.915, 353.72, 102.974
35, 0.00000, 398.695, 270.735, 389.972, 181.913, 398.042, 102.332
36, 0.00000, 297.456, 268.787, 294.98, 179.55, 325.756, 99.5033
37, 0.00000, 234.198, 266.495, 235.345, 177.035, 279.172, 96.7147
38, 0.00000, 187.277, 264.861, 191.183, 175.252, 244.692, 94.7273
39, 0.00000, 212.176, 263.279, 214.15, 173.835, 260.204, 93.4981
40, 0.00000, 223.829, 261.941, 224.803, 172.601, 266.796, 92.3599
41, 0.00000, 143.105, 261.01, 149.309, 171.379, 209.65, 90.7299
42, 0.00000, 136.453, 259.555, 142.869, 169.96, 203.406, 89.3219
43, 0.00000, 121.158, 258.515, 128.446, 168.909, 191.62, 88.2202
44, 0.00000, 26.8155, 257.903, 40.5172, 168.008, 125.3, 86.807
45, 0.00000, 35.1978, 255.998, 48.0291, 166.215, 129.046, 85.1426
46, 0.00000, 12.3313, 253.921, 26.4892, 164.172, 110.919, 83.0474
47, 0.00000, 10.7443, 253.319, 24.9379, 163.595, 109.156, 82.4939
48, 0.00000, 14.104, 253.071, 28.0095, 163.364, 111.216, 82.2971
49, 0.00000, 90.9655, 252.828, 99.4088, 163.36, 164.317, 82.7202
50, 0.00000, 24.7843, 253.104, 37.9102, 163.421, 118.665, 82.4125
51, 0.00000, 2.71884, 253.362, 17.5251, 163.623, 103.652, 82.4664
52, 0.00000, -2.10866, 253.906, 13.1347, 164.13, 100.898, 82.9291
53, 0.00000, -36.8232, 255.395, -18.7612, 165.48, 78.7215, 84.0606
54, 0.00000, 2.80186, 256.444, 18.0094, 166.555, 107.035, 85.2855
55, 0.00000, 25.7309, 258.109, 39.528, 168.198, 124.761, 86.9965
56, 0.00000, 92.3857, 259.339, 101.771, 169.595, 172.511, 88.7217
57, 0.00000, 250.112, 261.117, 249.207, 171.923, 284.107, 91.8395
58, 0.00000, 365.111, 263.295, 357.09, 174.557, 366.249, 94.9634
59, 0.00000, 73.623, 265.838, 85.321, 175.75, 166.612, 94.511
60, 0.00000, 191.759, 268.412, 195.984, 178.683, 251.798, 98.0784
61, 0.00000, 173.828, 271.601, 179.78, 181.671, 242.889, 100.856
62, 0.00000, 212.764, 275.467, 216.894, 185.569, 274.375, 104.873
63, 0.00000, 249.512, 279.14, 252.01, 189.296, 304.16, 108.716
64, 0.00000, 297.388, 283.198, 297.703, 193.472, 342.183, 113.081
65, 0.00000, 332.887, 287.201, 331.845, 197.55, 371.546, 117.287
66, 0.00000, 366.989, 290.664, 364.63, 201.116, 399.345, 120.994
67, 0.00000, 375.366, 294.839, 373.352, 205.214, 409.999, 125.071
68, 0.00000, 550.977, 299.501, 538.485, 210.641, 536.663, 131.51
69, 0.00000, 532.785, 303.021, 522.403, 214.009, 528.408, 134.748
70, 0.00000, 667.989, 308.887, 650.004, 220.443, 628.219, 141.97
71, 0.00000, 707.245, 315.512, 688.326, 227.059, 663.004, 148.846
72, 0.00000, 724.271, 320.309, 705.497, 231.884, 680.511, 153.801
73, 0.00000, 795.13, 325.858, 772.997, 237.722, 735.644, 160.136
74, 0.00000, 807.787, 328.52, 785.521, 240.421, 747.544, 162.945
75, 0.00000, 835.555, 334.366, 813.134, 246.384, 773.786, 169.178
76, 0.00000, 835.803, 334.418, 813.394, 246.441, 774.034, 169.239
77, 0.00000, 886.753, 345.164, 864.077, 257.418, 822.199, 180.756
78, 0.00000, 903.582, 348.718, 880.88, 261.066, 838.167, 184.604
79, 0.00000, 895.043, 346.914, 872.412, 259.228, 830.124, 182.674
80, 0.00000, 908.866, 349.835, 886.154, 262.213, 843.179, 185.814
81, 0.00000, 914.859, 351.102, 892.116, 263.509, 848.843, 187.179
82, 0.00000, 909.716, 350.014, 887.035, 262.405, 844.019, 186.022
83, 0.00000, 874.542, 342.585, 851.96, 254.789, 810.687, 177.999
84, 0.00000, 875.157, 342.715, 852.55, 254.917, 811.246, 178.13
85, 0.00000, 875.757, 342.842, 853.147, 255.047, 811.814, 178.266
86, 0.00000, 847.254, 336.831, 824.796, 248.906, 784.871, 171.823
87, 0.00000, 828.93, 332.97, 806.575, 244.967, 767.553, 167.699
88, 0.00000, 798.995, 326.671, 776.866, 238.556, 739.323, 161.01
89, 0.00000, 771.45, 320.882, 749.564, 232.677, 713.382, 154.897
90, 0.00000, 746.943, 315.737, 725.309, 227.465, 690.332, 149.493
91, 0.00000, 708.895, 307.762, 687.722, 219.408, 654.61, 141.17
92, 0.00000, 676.204, 300.92, 655.478, 212.514, 623.962, 134.077
93, 0.00000, 661.765, 297.901, 641.288, 209.487, 610.474, 130.973
94, 0.00000, 635.948, 292.509, 615.845, 204.065, 586.285, 125.42
95, 0.00000, 609.807, 287.055, 590.14, 198.599, 561.846, 119.841
96, 0.00000, 581.25, 281.104, 562.091, 192.646, 535.175, 113.784
97, 0.00000, 564.547, 277.628, 545.692, 189.172, 519.58, 110.257
98, 0.00000, 563.007, 277.307, 544.181, 188.852, 518.143, 109.933
99, 0.00000, 537.777, 272.06, 519.447, 183.621, 494.62, 104.637
100, 0.00000, 514.44, 267.213, 496.601, 178.798, 472.887, 99.7666
101, 0.00000, 495.078, 263.194, 477.672, 174.809, 454.874, 95.7465
102, 0.00000, 493.137, 262.791, 475.776, 174.41, 453.07, 95.3447
103, 0.00000, 487.355, 261.592, 470.138, 173.222, 447.704, 94.1501
104, 0.00000, 485.154, 261.136, 467.98, 172.768, 445.65, 93.6937
105, 0.00000, 482.952, 260.679, 465.83, 172.316, 443.604, 93.2389
106, 0.00000, 482.464, 260.578, 465.35, 172.215, 443.147, 93.1375
107, 0.00000, 476.618, 259.366, 459.655, 171.017, 437.727, 91.933
108, 0.00000, 468.56, 257.696, 451.796, 169.364, 430.248, 90.2736
109, 0.00000, 454.049, 254.69, 437.659, 166.394, 416.792, 87.2941
110, 0.00000, 467.618, 257.501, 450.829, 169.162, 429.329, 90.073
111, 0.00000, 457.867, 255.481, 441.37, 167.173, 420.324, 88.0761
112, 0.00000, 460.199, 255.964, 443.618, 167.646, 422.465, 88.5516
113, 0.00000, 463.973, 256.746, 447.296, 168.419, 425.965, 89.3266
114, 0.00000, 457.151, 255.333, 440.666, 167.026, 419.655, 87.9284
115, 0.00000, 461.717, 256.278, 445.094, 167.956, 423.87, 88.8628
116, 0.00000, 475.513, 259.137, 458.532, 170.781, 436.66, 91.6986
117, 0.00000, 484.807, 261.064, 467.615, 172.692, 445.304, 93.618
118, 0.00000, 500.427, 264.304, 482.858, 175.902, 459.81, 96.8482
119, 0.00000, 502.389, 264.711, 484.808, 176.312, 461.665, 97.2608
120, 0.00000, 519.605, 268.285, 501.644, 179.862, 477.687, 100.841
121, 0.00000, 536.824, 271.862, 518.503, 183.422, 493.723, 104.436
122, 0.00000, 547.208, 274.021, 528.656, 185.568, 503.379, 106.606
123, 0.00000, 570.909, 278.952, 551.924, 190.492, 525.508, 111.596
124, 0.00000, 550.093, 274.621, 531.516, 186.173, 506.098, 107.218
125, 0.00000, 549.461, 274.768, 530.96, 186.312, 505.839, 107.354
126, 0.00000, 553.62, 275.354, 534.961, 186.901, 509.375, 107.956
127, 0.00000, 555.888, 275.826, 537.188, 187.372, 511.493, 108.433
128, 0.00000, 510.453, 275.465, 494.894, 186.841, 480.042, 107.709
129, 0.00000, 372.635, 274.009, 366.421, 184.881, 383.837, 105.113
130, 0.00000, 393.104, 272.484, 385.126, 183.478, 396.107, 103.84
131, 0.00000, 341.229, 271.549, 336.513, 182.338, 359.213, 102.458
132, 0.00000, 283.66, 270.142, 282.302, 180.68, 317.586, 100.53
133, 0.00000, 282.705, 268.847, 281.16, 179.426, 315.443, 99.3033
134, 0.00000, 365.252, 268.016, 358.223, 179.028, 371.735, 99.3432
135, 0.00000, 282.482, 266.732, 280.543, 177.383, 312.869, 97.312
136, 0.00000, 161.007, 250.786, 166.813, 176.064, 227.478, 95.3604
137, 0.00000, 327.325, 250.225, 322.216, 176.287, 342.416, 96.4767
138, 0.00000, 177.778, 248.946, 182.161, 174.367, 237.094, 93.8142
139, 0.00000, 76.4504, 248.827, 87.6401, 173.868, 166.403, 92.7263
140, 0.00000, 53.2188, 248.719, 65.9839, 173.686, 150.099, 92.4001
141, 0.00000, 107.744, 248.96, 116.82, 174.106, 188.35, 93.1526
142, 0.00000, 218.225, 248.036, 219.768, 173.662, 264.182, 93.3615
143, 0.00000, 58.2163, 248.879, 70.662, 173.855, 153.75, 92.5978
144, 0.00000, 111.356, 248.959, 120.187, 174.118, 190.864, 93.1861
145, 0.00000, 75.5613, 249.22, 86.8805, 174.245, 166.233, 93.0732
146, 0.00000, 50.9576, 247.815, 63.744, 172.816, 147.534, 91.5488
147, 0.00000, 113.027, 247.977, 121.586, 173.184, 190.94, 92.2972
148, 0.00000, 121.382, 250.255, 129.741, 175.396, 199.278, 94.4821
149, 0.00000, 102.022, 251.241, 111.856, 176.272, 186.897, 95.1954
150, 0.00000, 201.964, 253.721, 205.587, 179.059, 259.288, 98.5013
151, 0.00000, 115.388, 256.75, 125.209, 181.601, 202.306, 100.414
152, 0.00000, 119.66, 259.047, 129.556, 183.818, 207.825, 102.585
153, 0.00000, 54.6858, 261.232, 69.2226, 185.653, 164.804, 103.895
154, 0.00000, 266.789, 263.101, 268.011, 188.413, 315.061, 107.968
155, 0.00000, 165.341, 266.431, 173.505, 191.11, 247.963, 109.927
156, 0.00000, 259.789, 268.816, 262.514, 193.892, 316.664, 113.253
157, 0.00000, 297.488, 271.869, 298.506, 197.054, 346.475, 116.576
158, 0.00000, 633.529, 276.856, 613.448, 203.554, 584.007, 124.898
159, 0.00000, 537.381, 279.031, 524.508, 205.26, 520.864, 126.094
160, 0.00000, 430.481, 281.711, 425.452, 207.381, 450.502, 127.555
161, 0.00000, 521.21, 285.538, 510.998, 211.552, 517.505, 132.237
162, 0.00000, 501.961, 288.228, 493.705, 214.097, 507.494, 134.643
163, 0.00000, 425.297, 291.623, 422.826, 217.022, 458.531, 137.015
164, 0.00000, 482.668, 295.238, 477.349, 220.861, 502.49, 141.204
165, 0.00000, 647.2, 299.942, 632.22, 226.338, 621.371, 147.744
166, 0.00000, 656.404, 303.008, 641.608, 229.406, 631.404, 150.875
167, 0.00000, 742.033, 322.775, 722.728, 234.412, 695.67, 156.46
168, 0.00000, 773.143, 325.755, 752.518, 237.515, 720.551, 159.788
169, 0.00000, 808.452, 328.661, 786.223, 240.573, 748.211, 163.108
170, 0.00000, 823.109, 331.746, 800.776, 243.714, 762.041, 166.387
171, 0.00000, 842.535, 335.838, 820.077, 247.885, 780.385, 170.75
172, 0.00000, 853.563, 338.162, 831.007, 250.25, 790.771, 173.222
173, 0.00000, 877.757, 343.265, 855.128, 255.476, 813.696, 178.716
174, 0.00000, 890.1, 345.871, 867.436, 258.147, 825.392, 181.527
175, 0.00000, 897.467, 347.427, 874.755, 259.735, 832.345, 183.196
176, 0.00000, 899.912, 347.944, 877.217, 260.27, 834.686, 183.764
177, 0.00000, 903.668, 348.737, 880.957, 261.083, 838.24, 184.62
178, 0.00000, 892.194, 346.313, 869.585, 258.614, 827.438, 182.029
179, 0.00000, 879.641, 343.663, 857.027, 255.888, 815.501, 179.152
180, 0.00000, 877.023, 343.11, 854.423, 255.324, 813.027, 178.559
181, 0.00000, 866.11, 340.808, 843.592, 252.977, 802.737, 176.098
182, 0.00000, 834.327, 334.108, 811.946, 246.128, 772.658, 168.914
183, 0.00000, 821.863, 331.484, 799.599, 243.461, 760.926, 166.131
184, 0.00000, 798.647, 326.599, 776.517, 238.481, 738.992, 160.931
185, 0.00000, 775.45, 321.723, 753.524, 233.529, 717.145, 155.781
186, 0.00000, 746.987, 315.748, 725.353, 227.475, 690.375, 149.503
187, 0.00000, 725.69, 311.282, 704.299, 222.959, 670.366, 144.833
188, 0.00000, 684.345, 302.624, 663.505, 214.229, 631.592, 135.839
189, 0.00000, 675.031, 300.676, 654.34, 212.272, 622.881, 133.83
190, 0.00000, 643.41, 294.068, 623.186, 205.628, 593.264, 127.019
191, 0.00000, 623.053, 289.819, 603.162, 201.366, 574.227, 122.664
192, 0.00000, 597.073, 284.402, 577.63, 195.942, 549.95, 117.135
193, 0.00000, 584.365, 281.754, 565.179, 193.301, 538.111, 114.45
194, 0.00000, 565.546, 277.837, 546.673, 189.38, 520.512, 110.468
195, 0.00000, 543.615, 273.275, 525.167, 184.83, 500.059, 105.859
196, 0.00000, 532.742, 271.015, 514.538, 182.584, 489.95, 103.588
197, 0.00000, 528.099, 270.051, 509.975, 181.62, 485.61, 102.615
198, 0.00000, 524.595, 269.323, 506.541, 180.896, 482.344, 101.883
199, 0.00000, 505.556, 265.37, 487.913, 176.966, 464.619, 97.9196
200, 0.00000, 502.508, 264.737, 484.937, 176.339, 461.787, 97.2876
201, 0.00000, 499.449, 264.102, 481.947, 175.709, 458.942, 96.6531
202, 0.00000, 504.168, 265.082, 486.541, 176.677, 463.314, 97.6289
203, 0.00000, 483.678, 260.831, 466.538, 172.465, 444.278, 93.3886
204, 0.00000, 487.15, 261.551, 469.916, 173.176, 447.493, 94.1042
205, 0.00000, 485.631, 261.236, 468.444, 172.866, 446.092, 93.7921
206, 0.00000, 470.175, 258.032, 453.389, 169.699, 431.763, 90.6085
207, 0.00000, 467.682, 257.515, 450.927, 169.182, 429.421, 90.0912
208, 0.00000, 466.966, 257.367, 450.225, 169.034, 428.753, 89.9434
209, 0.00000, 477.508, 259.552, 460.487, 171.192, 438.52, 92.1111
210, 0.00000, 478.115, 259.678, 461.101, 171.321, 439.104, 92.2396
211, 0.00000, 474.058, 258.837, 457.153, 170.49, 435.346, 91.4048
212, 0.00000, 477.378, 259.525, 460.376, 171.168, 438.414, 92.0866
213, 0.00000, 491.391, 262.431, 474.034, 174.043, 451.413, 94.9774
214, 0.00000, 499.884, 264.193, 482.344, 175.793, 459.321, 96.7385
215, 0.00000, 516.85, 267.714, 498.948, 179.293, 475.122, 100.267
216, 0.00000, 535.836, 271.658, 517.535, 183.217, 492.803, 104.229
217, 0.00000, 554.815, 275.604, 536.136, 187.15, 510.493, 108.208
218, 0.00000, 570.388, 278.845, 551.376, 190.376, 524.987, 111.478
219, 0.00000, 580.384, 280.925, 561.204, 192.458, 534.333, 113.592
220, 0.00000, 557.298, 276.121, 538.583, 187.667, 512.818, 108.732
221, 0.00000, 528.331, 277.164, 511.938, 188.575, 494.317, 109.508
222, 0.00000, 535.704, 276.649, 518.639, 188.096, 498.7, 109.062
223, 0.00000, 473.929, 275.932, 461.077, 187.154, 455.621, 107.85
224, 0.00000, 503.973, 276.701, 489.162, 188.019, 477.078, 108.845
225, 0.00000, 441.239, 275.875, 430.688, 186.974, 433.169, 107.514
226, 0.00000, 391.152, 275.066, 383.898, 185.983, 397.816, 106.289
227, 0.00000, 355.285, 274.104, 350.208, 184.884, 371.928, 105.025
228, 0.00000, 290.989, 273.504, 289.816, 183.962, 326.527, 103.769
229, 0.00000, 259.383, 273.797, 260.279, 184.09, 304.88, 103.706
230, 0.00000, 291.934, 274.31, 290.849, 184.745, 328.101, 104.539
231, 0.00000, 370.527, 273.317, 364.285, 184.194, 381.557, 104.431
232, 0.00000, 247.401, 272.843, 248.859, 183.106, 295.43, 102.683
233, 0.00000, 134.536, 251.916, 143.373, 183.366, 217.624, 102.244
234, 0.00000, 430.76, 252.073, 420.426, 184.917, 423.511, 105.443
235, 0.00000, 373.462, 251.916, 367.104, 184.542, 383.987, 104.786
236, 0.00000, 152.235, 251.738, 159.896, 183.273, 229.788, 102.264
237, 0.00000, 239.593, 251.566, 241.611, 183.512, 290.506, 103.038
238, 0.00000, 208.157, 251.797, 212.236, 183.589, 268.884, 102.916
239, 0.00000, 214.801, 251.952, 218.458, 183.762, 273.662, 103.135
240, 0.00000, 148.91, 251.786, 156.789, 183.303, 227.516, 102.275
241, 0.00000, 24.7336, 251.956, 40.881, 182.979, 140.925, 101.119
242, 0.00000, 90.27, 251.654, 101.983, 182.934, 186.409, 101.534
243, 0.00000, 309.739, 251.588, 307.33, 183.888, 339.354, 103.807
244, 0.00000, 219.28, 251.809, 222.639, 183.649, 276.632, 103.047
245, 0.00000, 44.9472, 252.263, 59.7858, 183.347, 155.399, 101.611
246, 0.00000, 99.7062, 251.34, 110.745, 182.671, 192.657, 101.344
247, 0.00000, 91.2872, 252.699, 103.096, 183.94, 188.275, 102.506
248, 0.00000, 98.4781, 254.108, 110.028, 185.317, 194.846, 103.884
249, 0.00000, 175.296, 254.404, 181.898, 185.933, 248.853, 104.991
250, 0.00000, 147.228, 255.592, 155.852, 186.953, 230.589, 105.783
251, 0.00000, 139.157, 257.539, 148.608, 188.782, 227.094, 107.5
252, 0.00000, 229.932, 260.116, 234.106, 191.702, 293.423, 110.932
253, 0.00000, 247.516, 263.178, 251.17, 194.749, 309.169, 114.004
254, 0.00000, 248.776, 265.568, 252.78, 197.059, 312.744, 116.261
255, 0.00000, 265.023, 267.646, 268.415, 199.152, 326.449, 118.41
256, 0.00000, 365.99, 271.65, 364.212, 203.644, 401.652, 123.467
257, 0.00000, 355.703, 275.464, 355.296, 207.278, 398.849, 126.958
258, 0.00000, 411.219, 278.517, 408.181, 210.593, 441.141, 130.592
259, 0.00000, 441.808, 282.042, 437.589, 214.192, 466.449, 134.34
260, 0.00000, 520.9, 286.021, 512.426, 218.485, 525.725, 139.107
261, 0.00000, 602.967, 290.239, 590.111, 223.046, 587.235, 144.173
262, 0.00000, 726.564, 317.169, 706.728, 228.689, 678.09, 150.602
263, 0.00000, 729.236, 320.828, 710.197, 232.313, 684.383, 154.263
264, 0.00000, 749.853, 324.463, 730.449, 236.024, 702.958, 158.134
265, 0.00000, 773.062, 328.49, 753.203, 240.132, 723.763, 162.431
266, 0.00000, 820.066, 331.203, 797.749, 243.061, 759.161, 165.703
267, 0.00000, 818.494, 330.873, 796.208, 242.728, 757.7, 165.359
268, 0.00000, 830.852, 333.474, 808.423, 245.365, 769.306, 168.107
269, 0.00000, 864.892, 340.649, 842.311, 252.698, 801.515, 175.795
270, 0.00000, 879.567, 343.746, 856.938, 255.869, 815.416, 179.129
271, 0.00000, 885.558, 345.01, 862.888, 257.159, 821.069, 180.484
272, 0.00000, 882.218, 344.305, 859.602, 256.447, 817.949, 179.741
273, 0.00000, 888.112, 345.55, 865.435, 257.712, 823.489, 181.066
274, 0.00000, 891.048, 346.17, 868.375, 258.35, 826.284, 181.74
275, 0.00000, 884.63, 344.814, 862.02, 256.972, 820.248, 180.296
276, 0.00000, 873.017, 342.363, 850.474, 254.468, 809.278, 177.666
277, 0.00000, 841.145, 335.642, 818.723, 247.593, 779.099, 170.448
278, 0.00000, 857.045, 338.994, 834.511, 251.009, 794.103, 174.024
279, 0.00000, 834.721, 334.289, 812.332, 246.211, 773.025, 169.001
280, 0.00000, 818.264, 330.824, 795.981, 242.679, 757.484, 165.308
281, 0.00000, 801.81, 327.362, 779.651, 239.156, 741.969, 161.634
282, 0.00000, 764.616, 319.546, 742.802, 231.223, 706.956, 153.388
283, 0.00000, 728.902, 312.053, 707.479, 223.64, 673.388, 145.537
284, 0.00000, 709.517, 307.991, 688.328, 219.538, 655.187, 141.303
285, 0.00000, 696.899, 305.349, 675.912, 216.881, 643.387, 138.57
286, 0.00000, 672.069, 300.155, 651.4, 211.644, 620.086, 133.184
287, 0.00000, 646.348, 294.78, 626.075, 206.243, 596.01, 127.648
288, 0.00000, 601.798, 285.485, 582.277, 196.928, 554.368, 118.139
289, 0.00000, 583.312, 281.633, 564.115, 193.075, 537.099, 114.219
290, 0.00000, 569.572, 278.773, 550.656, 190.223, 524.301, 111.324
291, 0.00000, 543.072, 273.26, 524.636, 184.718, 499.555, 105.746
292, 0.00000, 522.609, 269.008, 504.592, 180.484, 480.491, 101.468
293, 0.00000, 508.159, 266.008, 490.488, 177.509, 467.07, 98.4659
294, 0.00000, 510.633, 266.522, 492.867, 178.011, 469.334, 98.9729
295, 0.00000, 502.096, 264.75, 484.547, 176.257, 461.416, 97.2043
296, 0.00000, 493.375, 262.94, 476.025, 174.462, 453.306, 95.3967
297, 0.00000, 484.665, 261.134, 467.518, 172.671, 445.21, 93.5952
