Element, Terminal, P(kW), Q(kvar),  P_Normal, Q_Normal, P_Emergency, Q_Emergency
"Line.BB_258064"        ,   1,       134.9,        30.4,         0.0,         0.0,         0.0,         0.0
"Line.BB_258064"        ,   2,      -134.9,       -30.4
"Line.BB_258067"        ,   1,       -93.5,       -21.9,         0.0,         0.0,         0.0,         0.0
"Line.BB_258067"        ,   2,        93.5,        21.9
"Line.BB_258070"        ,   1,       122.8,        27.9,         0.0,         0.0,         0.0,         0.0
"Line.BB_258070"        ,   2,      -122.8,       -27.9
"Line.BB_258073"        ,   1,        23.5,         7.9,         0.0,         0.0,         0.0,         0.0
"Line.BB_258073"        ,   2,       -23.5,        -7.9
"Line.BB_258077"        ,   1,        12.0,        -0.7,         0.0,         0.0,         0.0,         0.0
"Line.BB_258077"        ,   2,       -12.0,         0.7
"Line.BB_258080"        ,   1,        41.2,         5.2,         0.0,         0.0,         0.0,         0.0
"Line.BB_258080"        ,   2,       -41.2,        -5.2
"Line.BB_258153"        ,   1,       -53.2,        -7.4,         0.0,         0.0,         0.0,         0.0
"Line.BB_258153"        ,   2,        53.2,         7.4
"Line.BB_258202"        ,   1,        53.2,         7.7,         0.0,         0.0,         0.0,         0.0
"Line.BB_258202"        ,   2,       -53.2,        -7.7
"Line.BB_258797"        ,   1,        36.9,         7.5,         0.0,         0.0,         0.0,         0.0
"Line.BB_258797"        ,   2,       -36.9,        -7.5
"Line.BB_258803"        ,   1,        98.8,        20.1,         0.0,         0.0,         0.0,         0.0
"Line.BB_258803"        ,   2,       -98.8,       -20.1
"Line.BB_258805"        ,   1,       -17.9,        -3.6,         0.0,         0.0,         0.0,         0.0
"Line.BB_258805"        ,   2,        17.9,         3.6
"Line.BB_258824"        ,   1,        56.1,        11.4,         0.0,         0.0,         0.0,         0.0
"Line.BB_258824"        ,   2,       -56.1,       -11.4
"Line.BB_258838"        ,   1,        17.9,         3.6,         0.0,         0.0,         0.0,         0.0
"Line.BB_258838"        ,   2,       -17.9,        -3.6
"Line.BB_258899"        ,   1,        78.1,        15.9,         0.0,         0.0,         0.0,         0.0
"Line.BB_258899"        ,   2,       -78.1,       -15.9
"Line.BB_259014"        ,   1,        50.4,        10.3,         0.0,         0.0,         0.0,         0.0
"Line.BB_259014"        ,   2,       -50.4,       -10.3
"Line.BB_259030"        ,   1,      -138.4,       -33.4,         0.0,         0.0,         0.0,         0.0
"Line.BB_259030"        ,   2,       138.4,        33.4
"Line.BB_259031"        ,   1,        93.5,        21.9,         0.0,         0.0,         0.0,         0.0
"Line.BB_259031"        ,   2,       -93.5,       -21.9
"Line.BB_259033"        ,   1,       -57.3,       -14.5,         0.0,         0.0,         0.0,         0.0
"Line.BB_259033"        ,   2,        57.3,        14.5
"Line.BB_259037"        ,   1,       -38.8,       -10.8,         0.0,         0.0,         0.0,         0.0
"Line.BB_259037"        ,   2,        38.8,        10.8
"Line.BB_259041"        ,   1,        38.8,        11.0,         0.0,         0.0,         0.0,         0.0
"Line.BB_259041"        ,   2,       -38.8,       -11.0
"Line.BB_259044"        ,   1,       -41.2,        -5.2,         0.0,         0.0,         0.0,         0.0
"Line.BB_259044"        ,   2,        41.2,         5.2
"Line.BB_259160"        ,   1,        54.8,         7.3,         0.0,         0.0,         0.0,         0.0
"Line.BB_259160"        ,   2,       -54.8,        -7.3
"Line.BB_259166"        ,   1,       -54.8,        -7.1,         0.0,         0.0,         0.0,         0.0
"Line.BB_259166"        ,   2,        54.8,         7.1
"Line.BB_259171"        ,   1,       -54.8,        -7.1,         0.0,         0.0,         0.0,         0.0
"Line.BB_259171"        ,   2,        54.8,         7.1
"Line.BB_259176"        ,   1,       -54.8,        -7.1,         0.0,         0.0,         0.0,         0.0
"Line.BB_259176"        ,   2,        54.8,         7.1
"Line.BB_259185"        ,   1,        51.3,         4.2,         0.0,         0.0,         0.0,         0.0
"Line.BB_259185"        ,   2,       -51.3,        -4.2
"Line.BB_262469"        ,   1,        -0.0,        -0.0,         0.0,         0.0,         0.0,         0.0
"Line.BB_262469"        ,   2,         0.0,         0.0
"Line.BB_263527"        ,   1,        -0.0,        -0.0,         0.0,         0.0,         0.0,         0.0
"Line.BB_263527"        ,   2,         0.0,         0.0
"Line.BB_263551"        ,   1,         0.0,         0.0,         0.0,         0.0,         0.0,         0.0
"Line.BB_263551"        ,   2,        -0.0,        -0.0
"Line.BB_263552"        ,   1,        -0.0,        -0.0,         0.0,         0.0,         0.0,         0.0
"Line.BB_263552"        ,   2,         0.0,         0.0
"Line.BB_263625"        ,   1,        -0.0,        -0.0,         0.0,         0.0,         0.0,         0.0
"Line.BB_263625"        ,   2,         0.0,         0.0
"Line.BB_263629"        ,   1,        -0.0,        -0.0,         0.0,         0.0,         0.0,         0.0
"Line.BB_263629"        ,   2,         0.0,         0.0
"Line.BB_263786"        ,   1,         0.0,        -0.0,         0.0,         0.0,         0.0,         0.0
"Line.BB_263786"        ,   2,        -0.0,         0.0
"Line.BB_263787"        ,   1,         0.0,        -0.0,         0.0,         0.0,         0.0,         0.0
"Line.BB_263787"        ,   2,        -0.0,         0.0
"Line.BB_263788"        ,   1,         0.0,        -0.0,         0.0,         0.0,         0.0,         0.0
"Line.BB_263788"        ,   2,        -0.0,         0.0
"Line.BB_263789"        ,   1,         0.0,        -0.0,         0.0,         0.0,         0.0,         0.0
"Line.BB_263789"        ,   2,        -0.0,         0.0
"Line.BB_263790"        ,   1,        -0.0,        -0.0,         0.0,         0.0,         0.0,         0.0
"Line.BB_263790"        ,   2,         0.0,         0.0
"Line.BB_263791"        ,   1,        -0.0,        -0.0,         0.0,         0.0,         0.0,         0.0
"Line.BB_263791"        ,   2,         0.0,         0.0
"Line.BB_263792"        ,   1,        -0.0,        -0.0,         0.0,         0.0,         0.0,         0.0
"Line.BB_263792"        ,   2,         0.0,         0.0
"Line.BB_263793"        ,   1,         0.0,         0.0,         0.0,         0.0,         0.0,         0.0
"Line.BB_263793"        ,   2,        -0.0,        -0.0
"Line.BB_263794"        ,   1,         0.0,         0.0,         0.0,         0.0,         0.0,         0.0
"Line.BB_263794"        ,   2,        -0.0,        -0.0
"Line.BB_263795"        ,   1,         0.0,         0.0,         0.0,         0.0,         0.0,         0.0
"Line.BB_263795"        ,   2,        -0.0,        -0.0
"Line.BB_263796"        ,   1,         0.0,        -0.0,         0.0,         0.0,         0.0,         0.0
"Line.BB_263796"        ,   2,        -0.0,         0.0
"Line.BB_263797"        ,   1,        -0.0,         0.0,         0.0,         0.0,         0.0,         0.0
"Line.BB_263797"        ,   2,         0.0,        -0.0
"Line.BB_263798"        ,   1,         0.0,        -0.0,         0.0,         0.0,         0.0,         0.0
"Line.BB_263798"        ,   2,        -0.0,         0.0
"Line.BB_263799"        ,   1,        -0.0,        -0.0,         0.0,         0.0,         0.0,         0.0
"Line.BB_263799"        ,   2,         0.0,         0.0
"Line.BB_263800"        ,   1,        -0.0,         0.0,         0.0,         0.0,         0.0,         0.0
"Line.BB_263800"        ,   2,         0.0,        -0.0
"Line.BB_263801"        ,   1,         0.0,        -0.0,         0.0,         0.0,         0.0,         0.0
"Line.BB_263801"        ,   2,        -0.0,         0.0
"Line.BB_263802"        ,   1,        -0.0,         0.0,         0.0,         0.0,         0.0,         0.0
"Line.BB_263802"        ,   2,         0.0,        -0.0
"Line.BB_263803"        ,   1,        -0.0,         0.0,         0.0,         0.0,         0.0,         0.0
"Line.BB_263803"        ,   2,         0.0,        -0.0
"Line.BB_263804"        ,   1,        -0.0,         0.0,         0.0,         0.0,         0.0,         0.0
"Line.BB_263804"        ,   2,         0.0,        -0.0
"Line.BB_263805"        ,   1,        -0.0,         0.0,         0.0,         0.0,         0.0,         0.0
"Line.BB_263805"        ,   2,         0.0,        -0.0
"Line.BB_263806"        ,   1,        -0.0,         0.0,         0.0,         0.0,         0.0,         0.0
"Line.BB_263806"        ,   2,         0.0,        -0.0
"Line.BB_263807"        ,   1,        -0.0,         0.0,         0.0,         0.0,         0.0,         0.0
"Line.BB_263807"        ,   2,         0.0,        -0.0
"Line.BB_263808"        ,   1,        -0.0,         0.0,         0.0,         0.0,         0.0,         0.0
"Line.BB_263808"        ,   2,         0.0,        -0.0
"Line.BB_263809"        ,   1,        -0.0,         0.0,         0.0,         0.0,         0.0,         0.0
"Line.BB_263809"        ,   2,         0.0,        -0.0
"Line.BB_263817"        ,   1,         0.0,         0.0,         0.0,         0.0,         0.0,         0.0
"Line.BB_263817"        ,   2,        -0.0,        -0.0
"Line.BB_263823"        ,   1,        -0.0,         0.0,         0.0,         0.0,         0.0,         0.0
"Line.BB_263823"        ,   2,         0.0,        -0.0
"Line.BB_263824"        ,   1,        -0.0,         0.4,         0.0,         0.0,         0.0,         0.0
"Line.BB_263824"        ,   2,         0.0,        -0.4
"Line.BB_263829"        ,   1,         0.0,        -0.1,         0.0,         0.0,         0.0,         0.0
"Line.BB_263829"        ,   2,        -0.0,         0.1
"Line.BB_263833"        ,   1,         0.0,         0.0,         0.0,         0.0,         0.0,         0.0
"Line.BB_263833"        ,   2,        -0.0,        -0.0
"Line.BB_263888"        ,   1,         0.0,        -0.0,         0.0,         0.0,         0.0,         0.0
"Line.BB_263888"        ,   2,        -0.0,         0.0
"Line.BB_264037"        ,   1,        -0.0,        -0.0,         0.0,         0.0,         0.0,         0.0
"Line.BB_264037"        ,   2,         0.0,        -0.0
"Line.BB_264116"        ,   1,        -0.0,         0.0,         0.0,         0.0,         0.0,         0.0
"Line.BB_264116"        ,   2,         0.0,        -0.0
"Line.BB_264119"        ,   1,        -0.0,        -0.1,         0.0,         0.0,         0.0,         0.0
"Line.BB_264119"        ,   2,         0.0,         0.1
"Line.BB_264132"        ,   1,        -0.0,        -0.1,         0.0,         0.0,         0.0,         0.0
"Line.BB_264132"        ,   2,         0.0,         0.1
"Line.BB_264986"        ,   1,         0.0,        -0.1,         0.0,         0.0,         0.0,         0.0
"Line.BB_264986"        ,   2,        -0.0,         0.1
"Line.BB_264987"        ,   1,         0.0,        -0.5,         0.0,         0.0,         0.0,         0.0
"Line.BB_264987"        ,   2,        -0.0,         0.5
"Line.BB_265164"        ,   1,        -0.0,        -0.0,         0.0,         0.0,         0.0,         0.0
"Line.BB_265164"        ,   2,         0.0,         0.0
"Line.BB_51045896"      ,   1,        36.9,         7.5,         0.0,         0.0,         0.0,         0.0
"Line.BB_51045896"      ,   2,       -36.9,        -7.5
"Line.BB_51045964"      ,   1,        -3.4,        -3.0,         0.0,         0.0,         0.0,         0.0
"Line.BB_51045964"      ,   2,         3.4,         3.0
"Line.BB_51045975"      ,   1,        -3.4,        -3.0,         0.0,         0.0,         0.0,         0.0
"Line.BB_51045975"      ,   2,         3.4,         3.0
"Line.BB_51045982"      ,   1,        -3.4,        -3.0,         0.0,         0.0,         0.0,         0.0
"Line.BB_51045982"      ,   2,         3.4,         3.0
"Line.BB_51045990"      ,   1,        -0.0,         0.0,         0.0,         0.0,         0.0,         0.0
"Line.BB_51045990"      ,   2,         0.0,        -0.0
"Line.BB_51045998"      ,   1,         0.0,         0.0,         0.0,         0.0,         0.0,         0.0
"Line.BB_51045998"      ,   2,        -0.0,        -0.0
"Line.BB_51046005"      ,   1,        -0.0,         0.0,         0.0,         0.0,         0.0,         0.0
"Line.BB_51046005"      ,   2,         0.0,        -0.0
"Line.BB_51046012"      ,   1,         0.0,         0.0,         0.0,         0.0,         0.0,         0.0
"Line.BB_51046012"      ,   2,        -0.0,        -0.0
"Line.BB_51046018"      ,   1,        -0.0,         0.0,         0.0,         0.0,         0.0,         0.0
"Line.BB_51046018"      ,   2,         0.0,        -0.0
"Line.BB_51046030"      ,   1,         0.0,         0.0,         0.0,         0.0,         0.0,         0.0
"Line.BB_51046030"      ,   2,        -0.0,        -0.0
"Line.BB_51046037"      ,   1,         0.0,         0.0,         0.0,         0.0,         0.0,         0.0
"Line.BB_51046037"      ,   2,         0.0,        -0.0
"Line.BB_51046044"      ,   1,        -3.4,        -3.0,         0.0,         0.0,         0.0,         0.0
"Line.BB_51046044"      ,   2,         3.4,         3.0
"Line.BB_51054581"      ,   1,        53.2,         7.6,         0.0,         0.0,         0.0,         0.0
"Line.BB_51054581"      ,   2,       -53.2,        -7.6
"Line.BB_51067432"      ,   1,         0.0,        -0.0,         0.0,         0.0,         0.0,         0.0
"Line.BB_51067432"      ,   2,        -0.0,        -0.0
"Line.BB_51118371"      ,   1,         0.0,         0.0,         0.0,         0.0,         0.0,         0.0
"Line.BB_51118371"      ,   2,        -0.0,        -0.0
"Line.BB_51118539"      ,   1,         0.0,        -0.0,         0.0,         0.0,         0.0,         0.0
"Line.BB_51118539"      ,   2,        -0.0,         0.0
"Line.BB_51159904"      ,   1,        -0.0,         0.0,         0.0,         0.0,         0.0,         0.0
"Line.BB_51159904"      ,   2,         0.0,        -0.0
"Line.BB_51159923"      ,   1,         0.0,        -0.0,         0.0,         0.0,         0.0,         0.0
"Line.BB_51159923"      ,   2,        -0.0,         0.0
"Line.BB_51189818"      ,   1,        -0.0,         0.0,         0.0,         0.0,         0.0,         0.0
"Line.BB_51189818"      ,   2,         0.0,        -0.0
"Line.DEV_258055_613672",   1,        -0.0,         0.0,         0.0,         0.0,         0.0,         0.0
"Line.DEV_258055_613672",   2,         0.0,        -0.0
"Line.DEV_258057_258060",   1,      -138.4,       -33.4,         0.0,         0.0,         0.0,         0.0
"Line.DEV_258057_258060",   2,       138.4,        33.4
"Line.DEV_259015_259020",   1,        50.4,        10.3,         0.0,         0.0,         0.0,         0.0
"Line.DEV_259015_259020",   2,       -50.4,       -10.3
"Line.DEV_259016_259186",   1,        54.4,        11.0,         0.0,         0.0,         0.0,         0.0
"Line.DEV_259016_259186",   2,       -54.4,       -11.0
"Line.DEV_259023_613672",   1,         0.0,         0.0,         0.0,         0.0,         0.0,         0.0
"Line.DEV_259023_613672",   2,        -0.0,        -0.0
"Line.DEV_259025_613672",   1,        -0.0,         0.0,         0.0,         0.0,         0.0,         0.0
"Line.DEV_259025_613672",   2,         0.0,        -0.0
"Line.DEV_259026_613672",   1,      -135.0,       -30.4,         0.0,         0.0,         0.0,         0.0
"Line.DEV_259026_613672",   2,       135.0,        30.4
"Line.DEV_259027_613672",   1,         0.0,         0.0,         0.0,         0.0,         0.0,         0.0
"Line.DEV_259027_613672",   2,        -0.0,        -0.0
"Line.DEV_259028_613672",   1,        -3.4,        -3.0,         0.0,         0.0,         0.0,         0.0
"Line.DEV_259028_613672",   2,         3.4,         3.0
"Line.DEV_259048_30049816",   1,       -54.8,        -7.1,         0.0,         0.0,         0.0,         0.0
"Line.DEV_259048_30049816",   2,        54.8,         7.1
"Line.DEV_259049_30049816",   1,        -0.0,         0.0,         0.0,         0.0,         0.0,         0.0
"Line.DEV_259049_30049816",   2,         0.0,        -0.0
"Line.DEV_259050_259159",   1,         0.0,        -0.0,         0.0,         0.0,         0.0,         0.0
"Line.DEV_259050_259159",   2,        -0.0,        -0.0
"Line.DEV_259051_30049816",   1,         0.0,        -0.0,         0.0,         0.0,         0.0,         0.0
"Line.DEV_259051_30049816",   2,        -0.0,        -0.0
"Line.DEV_259052_30049816",   1,        -0.0,        -0.0,         0.0,         0.0,         0.0,         0.0
"Line.DEV_259052_30049816",   2,         0.0,        -0.0
"Line.DEV_259157_30049816",   1,         3.4,         3.0,         0.0,         0.0,         0.0,         0.0
"Line.DEV_259157_30049816",   2,        -3.4,        -3.0
"Line.DEV_259158_30049816",   1,         0.0,        -0.0,         0.0,         0.0,         0.0,         0.0
"Line.DEV_259158_30049816",   2,         0.0,        -0.0
"Line.DEV_263528_263530",   1,        -0.0,        -0.0,         0.0,         0.0,         0.0,         0.0
"Line.DEV_263528_263530",   2,         0.0,         0.0
"Line.DEV_263529_263531",   1,         0.0,         0.0,         0.0,         0.0,         0.0,         0.0
"Line.DEV_263529_263531",   2,        -0.0,        -0.0
"Line.DEV_263784_5011570",   1,        -0.0,        -0.0,         0.0,         0.0,         0.0,         0.0
"Line.DEV_263784_5011570",   2,         0.0,        -0.0
"Line.DEV_263785_5011570",   1,         0.0,        -0.0,         0.0,         0.0,         0.0,         0.0
"Line.DEV_263785_5011570",   2,        -0.0,         0.0
"Line.DEV_263811_5011570",   1,         0.0,        -0.0,         0.0,         0.0,         0.0,         0.0
"Line.DEV_263811_5011570",   2,         0.0,        -0.0
"Line.DEV_263812_5011570",   1,        -0.0,        -0.0,         0.0,         0.0,         0.0,         0.0
"Line.DEV_263812_5011570",   2,        -0.0,        -0.0
"Line.DEV_263813_5011570",   1,         0.0,        -0.0,         0.0,         0.0,         0.0,         0.0
"Line.DEV_263813_5011570",   2,        -0.0,         0.0
"Line.DEV_263814_5011570",   1,        -0.0,        -0.0,         0.0,         0.0,         0.0,         0.0
"Line.DEV_263814_5011570",   2,         0.0,         0.0
"Line.DEV_263815_5011599",   1,        -0.0,         0.1,         0.0,         0.0,         0.0,         0.0
"Line.DEV_263815_5011599",   2,         0.0,        -0.1
"Line.DEV_263816_5011599",   1,         0.0,         0.2,         0.0,         0.0,         0.0,         0.0
"Line.DEV_263816_5011599",   2,        -0.0,        -0.2
"Line.DEV_263818_5011599",   1,        -0.0,         0.0,         0.0,         0.0,         0.0,         0.0
"Line.DEV_263818_5011599",   2,         0.0,        -0.0
"Line.DEV_263819_5011599",   1,        -0.0,         0.0,         0.0,         0.0,         0.0,         0.0
"Line.DEV_263819_5011599",   2,         0.0,        -0.0
"Line.DEV_263820_5011599",   1,        -0.0,         0.0,         0.0,         0.0,         0.0,         0.0
"Line.DEV_263820_5011599",   2,         0.0,        -0.0
"Line.DEV_263821_5011599",   1,        -0.0,         0.1,         0.0,         0.0,         0.0,         0.0
"Line.DEV_263821_5011599",   2,         0.0,        -0.1
"Line.DEV_263834_263922",   1,         0.0,         0.0,         0.0,         0.0,         0.0,         0.0
"Line.DEV_263834_263922",   2,        -0.0,        -0.0
"Line.DEV_263840_263841",   1,         0.3,         0.6,         0.0,         0.0,         0.0,         0.0
"Line.DEV_263840_263841",   2,        -0.3,        -0.6
"Line.DEV_263842_263843",   1,         0.4,         0.7,         0.0,         0.0,         0.0,         0.0
"Line.DEV_263842_263843",   2,        -0.4,        -0.7
